Sample in Buffer	Sample in Window	/x30/y12/q0/decoder2Data<8>	/x30/y12/q0/decoder2Data<7>	/x30/y12/q0/decoder2Data<6>	/x30/y12/q0/decoder2Data<5>	/x30/y12/q0/decoder2Data<4>	/x30/y12/q0/decoder2Data<3>	/x30/y12/q0/decoder2Data<2>	/x30/y12/q0/decoder2Data<1>	/x30/y12/q0/decoder2Data<0>	/x30/y12/q0/adcDataIn<13>	/x30/y12/q0/adcDataIn<12>	/x30/y12/q0/adcDataIn<11>	/x30/y12/q0/adcDataIn<10>	/x30/y12/q0/adcDataIn<9>	/x30/y12/q0/adcDataIn<8>	/x30/y12/q0/adcDataIn<7>	/x30/y12/q0/adcDataIn<6>	/x30/y12/q0/adcDataIn<5>	/x30/y12/q0/adcDataIn<4>	/x30/y12/q0/adcDataIn<3>	/x30/y12/q0/adcDataIn<2>	/x30/y12/q0/adcDataIn<1>	/x30/y12/q0/adcDataIn<0>	/x30/uartArmToCable0	/x30/uartArmToCable1	/x30/uartCableToArm0	/x30/uartCableToArm1	/x30/y12/COM_ADC_D<13>	/x30/y12/COM_ADC_D<12>	/x30/y12/COM_ADC_D<11>	/x30/y12/COM_ADC_D<10>	/x30/y12/COM_ADC_D<9>	/x30/y12/COM_ADC_D<8>	/x30/y12/COM_ADC_D<7>	/x30/y12/COM_ADC_D<6>	/x30/y12/COM_ADC_D<5>	/x30/y12/COM_ADC_D<4>	/x30/y12/COM_ADC_D<3>	/x30/y12/COM_ADC_D<2>	/x30/y12/COM_ADC_D<1>	/x30/y12/COM_ADC_D<0>	/x30/y12/q0/adcValueIsP	/x30/y12/q0/adcValueIsN	/x30/y12/q0/adcValueIsBaseline	/x30/y12/q0/newData	/x30/y12/q1/avgSum<17>	/x30/y12/q1/avgSum<16>	/x30/y12/q1/avgSum<15>	/x30/y12/q1/avgSum<14>	/x30/y12/q1/avgSum<13>	/x30/y12/q1/avgSum<12>	/x30/y12/q1/avgSum<11>	/x30/y12/q1/avgSum<10>	/x30/y12/q1/avgSum<9>	/x30/y12/q1/avgSum<8>	/x30/y12/q1/avgSum<7>	/x30/y12/q1/avgSum<6>	/x30/y12/q1/avgSum<5>	/x30/y12/q1/avgSum<4>	/x30/y12/q1/avgSum<3>	/x30/y12/q1/avgSum<2>	/x30/y12/q1/avgSum<1>	/x30/y12/q1/avgSum<0>	/x30/y12/q1/fifoOut<13>	/x30/y12/q1/fifoOut<12>	/x30/y12/q1/fifoOut<11>	/x30/y12/q1/fifoOut<10>	/x30/y12/q1/fifoOut<9>	/x30/y12/q1/fifoOut<8>	/x30/y12/q1/fifoOut<7>	/x30/y12/q1/fifoOut<6>	/x30/y12/q1/fifoOut<5>	/x30/y12/q1/fifoOut<4>	/x30/y12/q1/fifoOut<3>	/x30/y12/q1/fifoOut<2>	/x30/y12/q1/fifoOut<1>	/x30/y12/q1/fifoOut<0>	/x30/y12/q1/fifoWrite	/x30/y12/q1/fifoRead	/x30/y12/q1/fifoClear	/x30/y12/COM_ADC_D	/x30/y12/q0/adcDataIn	/x30/y12/q0/decoder2Data	/x30/y12/q1/avgSum	/x30/y12/q1/fifoOut
0	0	0	0	0	0	0	0	0	0	0	1	1	1	0	1	1	1	1	1	1	0	1	1	1	1	1	1	1	1	0	0	0	0	0	0	0	0	1	1	1	0	1	1	0	0	0	1	1	1	0	1	1	1	1	1	1	1	0	0	0	0	0	0	0	1	0	0	0	0	0	0	0	0	1	1	0	1	0	1	1	0	201D	3BF7	000	3BF80	201A	
1	1	0	0	0	0	0	0	0	0	0	1	1	1	0	1	1	1	1	1	1	1	0	0	0	1	1	1	1	1	0	0	0	0	0	0	0	0	1	1	1	1	1	1	0	0	0	1	1	1	0	1	1	1	1	1	1	1	0	0	0	0	0	1	1	1	0	0	0	0	0	0	0	0	1	1	0	1	1	1	1	0	201F	3BF8	000	3BF83	201B	
2	2	0	0	0	0	0	0	0	0	0	1	1	1	0	1	1	1	1	1	1	1	0	0	0	1	1	1	1	1	0	0	0	0	0	0	0	0	1	1	1	1	0	1	0	0	0	1	1	1	0	1	1	1	1	1	1	1	0	0	0	1	1	1	1	1	0	0	0	0	0	0	0	0	1	1	0	1	1	1	1	0	201E	3BF8	000	3BF8F	201B	
3	3	0	0	0	0	0	0	0	0	0	1	1	1	0	1	1	1	1	1	1	1	0	0	0	1	1	1	1	1	0	0	0	0	0	0	0	0	1	1	1	1	0	1	0	0	0	1	1	1	0	1	1	1	1	1	1	1	0	0	1	0	0	1	0	1	0	0	0	0	0	0	0	0	1	1	1	1	0	1	1	0	201E	3BF8	000	3BF92	201E	
4	4	0	0	0	0	0	0	0	0	0	1	1	1	0	1	1	1	1	1	1	1	0	0	1	1	1	1	1	1	0	0	0	0	0	0	0	0	1	1	1	1	0	1	0	0	0	1	1	1	0	1	1	1	1	1	1	1	0	0	1	0	1	0	1	1	0	0	0	0	0	0	0	0	1	1	1	1	0	1	1	0	201E	3BF9	000	3BF95	201E	
5	5	0	0	0	0	0	0	0	0	0	1	1	1	0	1	1	1	1	1	1	1	0	0	1	1	1	1	1	1	0	0	0	0	0	0	0	0	1	1	1	1	0	1	0	0	0	1	1	1	0	1	1	1	1	1	1	1	0	0	1	0	1	0	1	1	0	0	0	0	0	0	0	0	1	1	0	1	1	1	1	0	201E	3BF9	000	3BF95	201B	
6	6	0	0	0	0	0	0	0	0	0	1	1	1	0	1	1	1	1	1	1	1	0	0	1	1	1	1	1	1	0	0	0	0	0	0	0	0	1	1	1	1	0	1	0	0	0	1	1	1	0	1	1	1	1	1	1	1	0	0	1	0	1	0	1	1	0	0	0	0	0	0	0	0	1	1	0	1	1	1	1	0	201E	3BF9	000	3BF95	201B	
7	7	0	0	0	0	0	0	0	0	0	1	1	1	0	1	1	1	1	1	1	1	0	0	1	1	1	1	1	1	0	0	0	0	0	0	0	0	1	1	1	1	0	1	0	0	0	1	1	1	0	1	1	1	1	1	1	1	0	0	1	1	0	0	0	1	0	0	0	0	0	0	0	0	1	1	0	1	1	1	1	0	201E	3BF9	000	3BF98	201B	
8	8	0	0	0	0	0	0	0	0	0	1	1	1	0	1	1	1	1	1	1	1	0	0	1	1	1	1	1	1	0	0	0	0	0	0	0	0	1	1	1	1	0	1	0	0	0	1	1	1	0	1	1	1	1	1	1	1	0	0	1	1	0	1	1	1	0	0	0	0	0	0	0	0	1	1	0	1	1	1	1	0	201E	3BF9	000	3BF9B	201B	
9	9	0	0	0	0	0	0	0	0	0	1	1	1	0	1	1	1	1	1	1	1	0	0	1	1	1	1	1	1	0	0	0	0	0	0	0	0	1	1	1	1	0	1	0	0	0	1	1	1	0	1	1	1	1	1	1	1	0	0	1	1	1	1	0	1	0	0	0	0	0	0	0	0	1	1	1	0	1	1	1	0	201E	3BF9	000	3BF9E	201D	
10	10	0	0	0	0	0	0	0	0	0	1	1	1	0	1	1	1	1	1	1	1	0	0	1	1	1	1	1	1	0	0	0	0	0	0	0	0	1	1	1	1	0	1	0	0	0	1	1	1	0	1	1	1	1	1	1	1	0	1	0	0	0	0	1	1	0	0	0	0	0	0	0	0	1	1	1	0	1	1	1	0	201E	3BF9	000	3BFA1	201D	
11	11	0	0	0	0	0	0	0	0	0	1	1	1	0	1	1	1	1	1	1	1	0	1	0	1	1	1	1	1	0	0	0	0	0	0	0	0	1	1	1	0	1	1	0	0	0	1	1	1	0	1	1	1	1	1	1	1	0	1	0	0	0	1	0	1	0	0	0	0	0	0	0	0	1	1	0	0	1	1	1	0	201D	3BFA	000	3BFA2	2019	
12	12	0	0	0	0	0	0	0	0	0	1	1	1	0	1	1	1	1	1	1	1	0	1	0	1	1	1	1	1	0	0	0	0	0	0	0	0	1	1	1	0	1	1	0	0	0	1	1	1	0	1	1	1	1	1	1	1	0	1	0	0	0	1	0	1	0	0	0	0	0	0	0	0	1	1	0	0	1	1	1	0	201D	3BFA	000	3BFA2	2019	
13	13	0	0	0	0	0	0	0	0	0	1	1	1	0	1	1	1	1	1	1	1	0	1	0	1	1	1	1	1	0	0	0	0	0	0	0	0	1	1	1	1	1	1	0	0	0	1	1	1	0	1	1	1	1	1	1	1	0	1	0	0	1	1	0	1	0	0	0	0	0	0	0	0	1	1	1	0	0	1	1	0	201F	3BFA	000	3BFA6	201C	
14	14	0	0	0	0	0	0	0	0	0	1	1	1	0	1	1	1	1	1	1	1	0	1	0	1	1	1	1	1	0	0	0	0	0	0	0	0	1	1	1	1	1	1	0	0	0	1	1	1	0	1	1	1	1	1	1	1	0	1	0	1	1	0	0	1	0	0	0	0	0	0	0	0	1	1	1	0	0	1	1	0	201F	3BFA	000	3BFAC	201C	
15	15	0	0	0	0	0	0	0	0	0	1	1	1	0	1	1	1	1	1	1	1	0	1	0	1	1	1	1	1	0	0	0	0	0	0	0	1	0	0	0	1	1	1	0	0	0	1	1	1	0	1	1	1	1	1	1	1	0	1	0	1	1	1	1	1	0	0	0	0	0	0	0	0	1	1	1	0	1	1	1	0	2023	3BFA	000	3BFAF	201D	
16	16	0	0	0	0	0	0	0	0	0	1	1	1	0	1	1	1	1	1	1	1	0	1	0	1	1	1	1	1	0	0	0	0	0	0	0	1	0	0	0	1	0	1	0	0	0	1	1	1	0	1	1	1	1	1	1	1	1	0	0	0	1	0	1	1	0	0	0	0	0	0	0	0	1	1	1	0	1	1	1	0	2022	3BFA	000	3BFC5	201D	
17	17	0	0	0	0	0	0	0	0	0	1	1	1	0	1	1	1	1	1	1	1	1	0	0	1	1	1	1	1	0	0	0	0	0	0	0	1	0	0	0	0	1	1	0	0	0	1	1	1	0	1	1	1	1	1	1	1	1	0	0	1	0	1	0	1	0	0	0	0	0	0	0	0	1	1	1	1	0	1	1	0	2021	3BFC	000	3BFCA	201E	
18	18	0	0	0	0	0	0	0	0	0	1	1	1	0	1	1	1	1	1	1	1	1	0	0	1	1	1	1	1	0	0	0	0	0	0	0	1	0	0	0	0	1	1	0	0	0	1	1	1	0	1	1	1	1	1	1	1	1	0	0	1	1	1	0	1	0	0	0	0	0	0	0	0	1	1	1	1	0	1	1	0	2021	3BFC	000	3BFCE	201E	
19	19	0	0	0	0	0	0	0	0	0	1	1	1	0	1	1	1	1	1	1	1	1	0	0	1	1	1	1	1	0	0	0	0	0	0	0	1	0	0	0	1	1	1	0	0	0	1	1	1	0	1	1	1	1	1	1	1	1	0	1	0	0	0	1	1	0	0	0	0	0	0	0	0	1	1	1	1	0	1	1	0	2023	3BFC	000	3BFD1	201E	
20	20	0	0	0	0	0	0	0	0	0	1	1	1	0	1	1	1	1	1	1	1	1	0	1	1	1	1	1	1	0	0	0	0	0	0	0	1	0	0	0	1	1	1	0	0	0	1	1	1	0	1	1	1	1	1	1	1	1	0	1	0	1	1	0	1	0	0	0	0	0	0	0	0	1	1	1	1	0	1	1	0	2023	3BFD	000	3BFD6	201E	
21	21	0	0	0	0	0	0	0	0	0	1	1	1	0	1	1	1	1	1	1	1	1	0	1	1	1	1	1	1	0	0	0	0	0	0	0	1	0	0	0	1	1	1	0	0	0	1	1	1	0	1	1	1	1	1	1	1	1	0	1	1	0	1	1	1	0	0	0	0	0	0	0	0	1	1	1	1	0	1	1	0	2023	3BFD	000	3BFDB	201E	
22	22	0	0	0	0	0	0	0	0	0	1	1	1	0	1	1	1	1	1	1	1	1	0	1	1	1	1	1	1	0	0	0	0	0	0	0	1	0	0	0	1	1	1	0	0	0	1	1	1	0	1	1	1	1	1	1	1	1	1	0	0	0	0	0	1	0	0	0	0	0	0	0	0	1	1	1	1	0	1	1	0	2023	3BFD	000	3BFE0	201E	
23	23	0	0	0	0	0	0	0	0	0	1	1	1	0	1	1	1	1	1	1	1	1	1	0	1	1	1	1	1	0	0	0	0	0	0	0	1	0	0	1	0	1	1	0	0	0	1	1	1	0	1	1	1	1	1	1	1	1	1	0	0	1	0	1	1	0	0	0	0	0	0	0	0	1	1	1	1	0	1	1	0	2025	3BFE	000	3BFE5	201E	
24	24	0	0	0	0	0	0	0	0	0	1	1	1	0	1	1	1	1	1	1	1	1	1	0	1	1	1	1	1	0	0	0	0	0	0	0	1	0	0	1	0	0	1	0	0	0	1	1	1	0	1	1	1	1	1	1	1	1	1	0	1	0	1	1	1	0	0	0	0	0	0	0	0	1	1	1	1	0	1	1	0	2024	3BFE	000	3BFEB	201E	
25	25	0	0	0	0	0	0	0	0	0	1	1	1	0	1	1	1	1	1	1	1	1	1	0	1	1	1	1	1	0	0	0	0	0	0	0	1	0	0	1	1	0	1	0	0	0	1	1	1	0	1	1	1	1	1	1	1	1	1	1	0	0	0	1	1	0	0	0	0	0	0	0	0	1	1	1	1	0	1	1	0	2026	3BFE	000	3BFF1	201E	
26	26	0	0	0	0	0	0	0	0	0	1	1	1	0	1	1	1	1	1	1	1	1	1	1	1	1	1	1	1	0	0	0	0	0	0	0	1	0	0	1	1	0	1	0	0	0	1	1	1	0	1	1	1	1	1	1	1	1	1	1	1	0	0	1	1	0	0	0	0	0	0	0	0	1	1	1	1	0	1	1	0	2026	3BFF	000	3BFF9	201E	
27	27	0	0	0	0	0	0	0	0	0	1	1	1	0	1	1	1	1	1	1	1	1	1	1	1	1	1	1	1	0	0	0	0	0	0	0	1	0	0	1	0	1	1	0	0	0	1	1	1	1	0	0	0	0	0	0	0	0	0	0	0	0	0	1	1	0	0	0	0	0	0	0	0	1	1	1	0	1	1	1	0	2025	3BFF	000	3C001	201D	
28	28	0	0	0	0	0	0	0	0	0	1	1	1	1	0	0	0	0	0	0	0	0	0	0	1	1	1	1	1	0	0	0	0	0	0	0	1	0	0	1	0	1	1	0	0	0	1	1	1	1	0	0	0	0	0	0	0	0	0	0	1	0	0	0	1	0	0	0	0	0	0	0	0	1	1	1	0	1	1	1	0	2025	3C00	000	3C008	201D	
29	29	0	0	0	0	0	0	0	0	0	1	1	1	1	0	0	0	0	0	0	0	0	0	0	1	1	1	1	1	0	0	0	0	0	0	0	1	0	0	1	1	1	1	0	0	0	1	1	1	1	0	0	0	0	0	0	0	0	0	1	0	0	0	0	1	0	0	0	0	0	0	0	0	1	1	1	1	1	1	1	0	2027	3C00	000	3C010	201F	
30	30	0	0	0	0	0	0	0	0	0	1	1	1	1	0	0	0	0	0	0	0	0	0	1	1	1	1	1	1	0	0	0	0	0	0	0	1	0	0	1	1	1	1	0	0	0	1	1	1	1	0	0	0	0	0	0	0	0	0	1	1	0	1	0	1	0	0	0	0	0	0	0	0	1	1	1	1	1	1	1	0	2027	3C01	000	3C01A	201F	
31	31	0	0	0	0	0	0	0	0	0	1	1	1	1	0	0	0	0	0	0	0	0	0	1	1	1	1	1	1	0	0	0	0	0	0	0	1	0	0	1	0	1	1	0	0	0	1	1	1	1	0	0	0	0	0	0	0	0	1	0	0	0	1	0	1	0	0	0	0	0	0	0	1	0	0	0	1	0	1	1	0	2025	3C01	000	3C022	2022	
32	32	0	0	0	0	0	0	0	0	0	1	1	1	1	0	0	0	0	0	0	0	0	1	0	1	1	1	1	1	0	0	0	0	0	0	0	1	0	0	1	0	1	1	0	0	0	1	1	1	1	0	0	0	0	0	0	0	0	1	0	1	0	0	0	1	0	0	0	0	0	0	0	1	0	0	0	1	0	1	1	0	2025	3C02	000	3C028	2022	
33	33	0	0	0	0	0	0	0	0	0	1	1	1	1	0	0	0	0	0	0	0	0	1	0	1	1	1	1	1	0	0	0	0	0	0	0	1	0	0	1	1	1	1	0	0	0	1	1	1	1	0	0	0	0	0	0	0	0	1	0	1	0	1	1	1	0	0	0	0	0	0	0	1	0	0	0	0	1	1	1	0	2027	3C02	000	3C02B	2021	
34	34	0	0	0	0	0	0	0	0	0	1	1	1	1	0	0	0	0	0	0	0	0	1	0	1	1	1	1	1	0	0	0	0	0	0	0	1	0	0	1	1	1	1	0	0	0	1	1	1	1	0	0	0	0	0	0	0	0	1	1	0	0	0	0	1	0	0	0	0	0	0	0	1	0	0	0	0	1	1	1	0	2027	3C02	000	3C030	2021	
35	35	0	0	0	0	0	0	0	0	0	1	1	1	1	0	0	0	0	0	0	0	0	1	1	1	1	1	1	1	0	0	0	0	0	0	0	1	0	0	1	1	1	1	0	0	0	1	1	1	1	0	0	0	0	0	0	0	0	1	1	0	1	1	0	1	0	0	0	0	0	0	0	1	0	0	0	1	1	1	1	0	2027	3C03	000	3C036	2023	
36	36	0	0	0	0	0	0	0	0	0	1	1	1	1	0	0	0	0	0	0	0	0	1	1	1	1	1	1	1	0	0	0	0	0	0	0	1	0	0	1	1	1	1	0	0	0	1	1	1	1	0	0	0	0	0	0	0	0	1	1	1	1	0	0	1	0	0	0	0	0	0	0	1	0	0	0	1	1	1	1	0	2027	3C03	000	3C03C	2023	
37	37	0	0	0	0	0	0	0	0	0	1	1	1	1	0	0	0	0	0	0	0	0	1	1	1	1	1	1	1	0	0	0	0	0	0	0	1	0	0	1	1	1	1	0	0	0	1	1	1	1	0	0	0	0	0	0	0	1	0	0	0	0	0	0	1	0	0	0	0	0	0	0	1	0	0	0	1	1	1	1	0	2027	3C03	000	3C040	2023	
38	38	0	0	0	0	0	0	0	0	0	1	1	1	1	0	0	0	0	0	0	0	1	0	0	1	1	1	1	1	0	0	0	0	0	0	0	1	0	0	1	1	1	1	0	0	0	1	1	1	1	0	0	0	0	0	0	0	1	0	0	0	1	0	0	1	0	0	0	0	0	0	0	1	0	0	0	1	1	1	1	0	2027	3C04	000	3C044	2023	
39	39	0	0	0	0	0	0	0	0	0	1	1	1	1	0	0	0	0	0	0	0	1	0	0	1	1	1	1	1	0	0	0	0	0	0	0	1	0	0	1	1	1	1	0	0	0	1	1	1	1	0	0	0	0	0	0	0	1	0	0	1	0	0	0	1	0	0	0	0	0	0	0	1	0	0	1	0	0	1	1	0	2027	3C04	000	3C048	2024	
40	40	0	0	0	0	0	0	0	0	0	1	1	1	1	0	0	0	0	0	0	0	1	0	0	1	1	1	1	1	0	0	0	0	0	0	0	1	0	0	1	1	1	1	0	0	0	1	1	1	1	0	0	0	0	0	0	0	1	0	0	1	1	0	0	1	0	0	0	0	0	0	0	1	0	0	1	0	0	1	1	0	2027	3C04	000	3C04C	2024	
41	41	0	0	0	0	0	0	0	0	0	1	1	1	1	0	0	0	0	0	0	0	1	0	0	1	1	1	1	1	0	0	0	0	0	0	0	1	0	1	1	0	1	1	0	0	0	1	1	1	1	0	0	0	0	0	0	0	1	0	0	1	1	1	1	1	0	0	0	0	0	0	0	1	0	0	1	1	0	1	1	0	202D	3C04	000	3C04F	2026	
42	42	0	0	0	0	0	0	0	0	0	1	1	1	1	0	0	0	0	0	0	0	1	0	0	1	1	1	1	1	0	0	0	0	0	0	0	1	0	1	1	0	1	1	0	0	0	1	1	1	1	0	0	0	0	0	0	0	1	0	1	1	0	0	0	1	0	0	0	0	0	0	0	1	0	0	1	1	0	1	1	0	202D	3C04	000	3C058	2026	
43	43	0	0	0	0	0	0	0	0	0	1	1	1	1	0	0	0	0	0	0	0	1	0	1	1	1	1	1	1	0	0	0	0	0	0	0	1	0	1	0	1	1	1	0	0	0	1	1	1	1	0	0	0	0	0	0	0	1	0	1	1	1	1	1	1	0	0	0	0	0	0	0	1	0	0	1	0	1	1	1	0	202B	3C05	000	3C05F	2025	
44	44	0	0	0	0	0	0	0	0	0	1	1	1	1	0	0	0	0	0	0	0	1	0	1	1	1	1	1	1	0	0	0	0	0	0	0	1	0	1	0	1	1	1	0	0	0	1	1	1	1	0	0	0	0	0	0	0	1	1	0	0	1	0	0	1	0	0	0	0	0	0	0	1	0	0	1	0	1	1	1	0	202B	3C05	000	3C064	2025	
45	45	0	0	0	0	0	0	0	0	0	1	1	1	1	0	0	0	0	0	0	0	1	1	0	1	1	1	1	1	0	0	0	0	0	0	0	1	0	1	0	0	1	1	0	0	0	1	1	1	1	0	0	0	0	0	0	0	1	1	0	1	0	1	0	1	0	0	0	0	0	0	0	1	0	0	1	1	1	1	1	0	2029	3C06	000	3C06A	2027	
46	46	0	0	0	0	0	0	0	0	0	1	1	1	1	0	0	0	0	0	0	0	1	1	0	1	1	1	1	1	0	0	0	0	0	0	0	1	0	1	0	0	0	1	0	0	0	1	1	1	1	0	0	0	0	0	0	0	1	1	0	1	0	0	1	1	0	0	0	0	0	0	0	1	0	0	1	1	1	1	1	0	2028	3C06	000	3C069	2027	
47	47	0	0	0	0	0	0	0	0	0	1	1	1	1	0	0	0	0	0	0	0	1	1	0	1	1	1	1	1	0	0	0	0	0	0	0	1	0	1	0	0	1	1	0	0	0	1	1	1	1	0	0	0	0	0	0	0	1	1	0	1	0	1	0	1	0	0	0	0	0	0	0	1	0	0	1	0	1	1	1	0	2029	3C06	000	3C06A	2025	
48	48	0	0	0	0	0	0	0	0	0	1	1	1	1	0	0	0	0	0	0	0	1	1	0	1	1	1	1	1	0	0	0	0	0	0	0	1	0	1	0	0	1	1	0	0	0	1	1	1	1	0	0	0	0	0	0	0	1	1	0	1	1	0	0	1	0	0	0	0	0	0	0	1	0	0	1	0	1	1	1	0	2029	3C06	000	3C06C	2025	
49	49	0	0	0	0	0	0	0	0	0	1	1	1	1	0	0	0	0	0	0	0	1	1	0	1	1	1	1	1	0	0	0	0	0	0	0	1	0	1	0	1	1	1	0	0	0	1	1	1	1	0	0	0	0	0	0	0	1	1	1	0	0	0	0	1	0	0	0	0	0	0	0	1	0	0	1	1	1	1	1	0	202B	3C06	000	3C070	2027	
50	50	0	0	0	0	0	0	0	0	0	1	1	1	1	0	0	0	0	0	0	0	1	1	1	1	1	1	1	1	0	0	0	0	0	0	0	1	0	1	0	1	0	1	0	0	0	1	1	1	1	0	0	0	0	0	0	0	1	1	1	0	1	1	1	1	0	0	0	0	0	0	0	1	0	0	1	1	1	1	1	0	202A	3C07	000	3C077	2027	
51	51	0	0	0	0	0	0	0	0	0	1	1	1	1	0	0	0	0	0	0	0	1	1	1	1	1	1	1	1	0	0	0	0	0	0	0	1	0	1	0	1	1	1	0	0	0	1	1	1	1	0	0	0	0	0	0	0	1	1	1	1	0	1	0	1	0	0	0	0	0	0	0	1	0	0	1	1	1	1	1	0	202B	3C07	000	3C07A	2027	
52	52	0	0	0	0	0	0	0	0	0	1	1	1	1	0	0	0	0	0	0	0	1	1	1	1	1	1	1	1	0	0	0	0	0	0	0	1	0	1	0	1	1	1	0	0	0	1	1	1	1	0	0	0	0	0	0	0	1	1	1	1	1	1	0	1	0	0	0	0	0	0	0	1	0	0	1	1	1	1	1	0	202B	3C07	000	3C07E	2027	
53	53	0	0	0	0	0	0	0	0	0	1	1	1	1	0	0	0	0	0	0	0	1	1	1	1	1	1	1	1	0	0	0	0	0	0	0	1	0	1	0	1	1	1	0	0	0	1	1	1	1	0	0	0	0	0	0	1	0	0	0	0	0	1	0	1	0	0	0	0	0	0	0	1	0	0	1	1	1	1	1	0	202B	3C07	000	3C082	2027	
54	54	0	0	0	0	0	0	0	0	0	1	1	1	1	0	0	0	0	0	0	1	0	0	0	1	1	1	1	1	0	0	0	0	0	0	0	1	0	1	0	1	0	1	0	0	0	1	1	1	1	0	0	0	0	0	0	1	0	0	0	0	0	0	1	1	0	0	0	0	0	0	0	1	0	0	1	1	1	1	1	0	202A	3C08	000	3C081	2027	
55	55	0	0	0	0	0	0	0	0	0	1	1	1	1	0	0	0	0	0	0	1	0	0	0	1	1	1	1	1	0	0	0	0	0	0	0	1	0	1	0	1	1	1	0	0	0	1	1	1	1	0	0	0	0	0	0	1	0	0	0	0	1	0	0	1	0	0	0	0	0	0	0	1	0	0	1	1	1	1	1	0	202B	3C08	000	3C084	2027	
56	56	0	0	0	0	0	0	0	0	0	1	1	1	1	0	0	0	0	0	0	1	0	0	0	1	1	1	1	1	0	0	0	0	0	0	0	1	0	1	0	1	1	1	0	0	0	1	1	1	1	0	0	0	0	0	0	1	0	0	0	1	0	0	0	1	0	0	0	0	0	0	0	1	0	0	1	1	1	1	1	0	202B	3C08	000	3C088	2027	
57	57	0	0	0	0	0	0	0	0	0	1	1	1	1	0	0	0	0	0	0	1	0	0	0	1	1	1	1	1	0	0	0	0	0	0	0	1	0	1	1	0	1	1	0	0	0	1	1	1	1	0	0	0	0	0	0	1	0	0	0	1	1	0	0	1	0	0	0	0	0	0	0	1	0	1	1	0	1	1	1	0	202D	3C08	000	3C08C	202D	
58	58	0	0	0	0	0	0	0	0	0	1	1	1	1	0	0	0	0	0	0	1	0	0	0	1	1	1	1	1	0	0	0	0	0	0	0	1	0	1	1	0	0	1	0	0	0	1	1	1	1	0	0	0	0	0	0	1	0	0	1	0	0	1	1	1	0	0	0	0	0	0	0	1	0	1	1	0	1	1	1	0	202C	3C08	000	3C093	202D	
59	59	0	0	0	0	0	0	0	0	0	1	1	1	1	0	0	0	0	0	0	1	0	0	1	1	1	1	1	1	0	0	0	0	0	0	0	1	0	1	1	0	1	1	0	0	0	1	1	1	1	0	0	0	0	0	0	1	0	0	1	0	0	1	0	1	0	0	0	0	0	0	0	1	0	1	0	1	1	1	1	0	202D	3C09	000	3C092	202B	
60	60	0	0	0	0	0	0	0	0	0	1	1	1	1	0	0	0	0	0	0	1	0	0	1	1	1	1	1	1	0	0	0	0	0	0	0	1	0	1	1	0	1	1	0	0	0	1	1	1	1	0	0	0	0	0	0	1	0	0	1	0	0	1	0	1	0	0	0	0	0	0	0	1	0	1	0	1	1	1	1	0	202D	3C09	000	3C092	202B	
61	61	0	0	0	0	0	0	0	0	0	1	1	1	1	0	0	0	0	0	0	1	0	0	1	1	1	1	1	1	0	0	0	0	0	0	0	1	0	1	1	0	1	1	0	0	0	1	1	1	1	0	0	0	0	0	0	1	0	0	1	0	1	0	0	1	0	0	0	0	0	0	0	1	0	1	0	0	0	1	1	0	202D	3C09	000	3C094	2028	
62	62	0	0	0	0	0	0	0	0	0	1	1	1	1	0	0	0	0	0	0	1	0	0	1	1	1	1	1	1	0	0	0	0	0	0	0	1	0	1	1	0	1	1	0	0	0	1	1	1	1	0	0	0	0	0	0	1	0	0	1	0	1	1	0	1	0	0	0	0	0	0	0	1	0	1	0	0	0	1	1	0	202D	3C09	000	3C096	2028	
63	63	0	0	0	0	0	0	0	0	0	1	1	1	1	0	0	0	0	0	0	1	0	0	1	1	1	1	1	1	0	0	0	0	0	0	0	1	0	1	0	1	1	1	0	0	0	1	1	1	1	0	0	0	0	0	0	1	0	0	1	1	0	1	1	1	0	0	0	0	0	0	0	1	0	1	0	0	1	1	1	0	202B	3C09	000	3C09B	2029	
64	64	0	0	0	0	0	0	0	0	0	1	1	1	1	0	0	0	0	0	0	1	0	0	1	1	1	1	1	1	0	0	0	0	0	0	0	1	0	1	0	1	0	1	0	0	0	1	1	1	1	0	0	0	0	0	0	1	0	0	1	1	1	0	1	1	0	0	0	0	0	0	0	1	0	1	0	0	1	1	1	0	202A	3C09	000	3C09D	2029	
65	65	0	0	0	0	0	0	0	0	0	1	1	1	1	0	0	0	0	0	0	1	0	0	1	1	1	1	1	1	0	0	0	0	0	0	0	1	0	1	1	0	0	1	0	0	0	1	1	1	1	0	0	0	0	0	0	1	0	0	1	1	1	1	0	1	0	0	0	0	0	0	0	1	0	1	0	1	0	1	1	0	202C	3C09	000	3C09E	202A	
66	66	0	0	0	0	0	0	0	0	0	1	1	1	1	0	0	0	0	0	0	1	0	0	1	1	1	1	1	1	0	0	0	0	0	0	0	1	0	1	1	0	0	1	0	0	0	1	1	1	1	0	0	0	0	0	0	1	0	1	0	0	0	0	1	1	0	0	0	0	0	0	0	1	0	1	0	1	0	1	1	0	202C	3C09	000	3C0A1	202A	
67	67	0	0	0	0	0	0	0	0	0	1	1	1	1	0	0	0	0	0	0	1	0	1	0	1	1	1	1	1	0	0	0	0	0	0	0	1	0	1	0	1	1	1	0	0	0	1	1	1	1	0	0	0	0	0	0	1	0	1	0	0	0	1	1	1	0	0	0	0	0	0	0	1	0	1	0	1	1	1	1	0	202B	3C0A	000	3C0A3	202B	
68	68	0	0	0	0	0	0	0	0	0	1	1	1	1	0	0	0	0	0	0	1	0	1	0	1	1	1	1	1	0	0	0	0	0	0	0	1	0	1	0	1	1	1	0	0	0	1	1	1	1	0	0	0	0	0	0	1	0	1	0	0	1	0	0	1	0	0	0	0	0	0	0	1	0	1	0	1	1	1	1	0	202B	3C0A	000	3C0A4	202B	
69	69	0	0	0	0	0	0	0	0	0	1	1	1	1	0	0	0	0	0	0	1	0	1	0	1	1	1	1	1	0	0	0	0	0	0	0	1	0	1	1	0	1	1	0	0	0	1	1	1	1	0	0	0	0	0	0	1	0	1	0	0	1	0	0	1	0	0	0	0	0	0	0	1	0	1	0	1	0	1	1	0	202D	3C0A	000	3C0A4	202A	
70	70	0	0	0	0	0	0	0	0	0	1	1	1	1	0	0	0	0	0	0	1	0	1	0	1	1	1	1	1	0	0	0	0	0	0	0	1	0	1	1	0	0	1	0	0	0	1	1	1	1	0	0	0	0	0	0	1	0	1	0	0	1	1	1	1	0	0	0	0	0	0	0	1	0	1	0	1	0	1	1	0	202C	3C0A	000	3C0A7	202A	
71	71	0	0	0	0	0	0	0	0	0	1	1	1	1	0	0	0	0	0	0	1	0	1	0	1	1	1	1	1	0	0	0	0	0	0	0	1	0	1	1	0	0	1	0	0	0	1	1	1	1	0	0	0	0	0	0	1	0	1	0	1	0	0	1	1	0	0	0	0	0	0	0	1	0	1	0	1	1	1	1	0	202C	3C0A	000	3C0A9	202B	
72	72	0	0	0	0	0	0	0	0	0	1	1	1	1	0	0	0	0	0	0	1	0	1	0	1	1	1	1	1	0	0	0	0	0	0	0	1	0	1	1	0	0	1	0	0	0	1	1	1	1	0	0	0	0	0	0	1	0	1	0	1	0	1	1	1	0	0	0	0	0	0	0	1	0	1	0	1	1	1	1	0	202C	3C0A	000	3C0AB	202B	
73	73	0	0	0	0	0	0	0	0	0	1	1	1	1	0	0	0	0	0	0	1	0	1	0	1	1	1	1	1	0	0	0	0	0	0	0	1	0	1	1	0	1	1	0	0	0	1	1	1	1	0	0	0	0	0	0	1	0	1	0	1	1	0	0	1	0	0	0	0	0	0	0	1	0	1	1	0	0	1	1	0	202D	3C0A	000	3C0AC	202C	
74	74	0	0	0	0	0	0	0	0	0	1	1	1	1	0	0	0	0	0	0	1	0	1	0	1	1	1	1	1	0	0	0	0	0	0	0	1	0	1	1	0	1	1	0	0	0	1	1	1	1	0	0	0	0	0	0	1	0	1	0	1	1	1	0	1	0	0	0	0	0	0	0	1	0	1	1	0	0	1	1	0	202D	3C0A	000	3C0AE	202C	
75	75	0	0	0	0	0	0	0	0	0	1	1	1	1	0	0	0	0	0	0	1	0	1	0	1	1	1	1	1	0	0	0	0	0	0	0	1	0	1	0	1	1	1	0	0	0	1	1	1	1	0	0	0	0	0	0	1	0	1	0	1	1	1	1	1	0	0	0	0	0	0	0	1	0	1	1	0	1	1	1	0	202B	3C0A	000	3C0AF	202D	
76	76	0	0	0	0	0	0	0	0	0	1	1	1	1	0	0	0	0	0	0	1	0	1	0	1	1	1	1	1	0	0	0	0	0	0	0	1	0	1	0	1	1	1	0	0	0	1	1	1	1	0	0	0	0	0	0	1	0	1	0	1	1	1	0	1	0	0	0	0	0	0	0	1	0	1	1	0	1	1	1	0	202B	3C0A	000	3C0AE	202D	
77	77	0	0	0	0	0	0	0	0	0	1	1	1	1	0	0	0	0	0	0	1	0	1	0	1	1	1	1	1	0	0	0	0	0	0	0	1	0	1	1	0	1	1	0	0	0	1	1	1	1	0	0	0	0	0	0	1	0	1	0	1	1	0	0	1	0	0	0	0	0	0	0	1	0	1	1	0	1	1	1	0	202D	3C0A	000	3C0AC	202D	
78	78	0	0	0	0	0	0	0	0	0	1	1	1	1	0	0	0	0	0	0	1	0	1	0	1	1	1	1	1	0	0	0	0	0	0	0	1	0	1	1	0	0	1	0	0	0	1	1	1	1	0	0	1	0	0	0	0	0	1	1	1	0	1	1	1	0	0	0	0	0	0	0	1	0	1	1	0	1	1	1	0	202C	3C0A	000	3C83B	202D	
79	79	0	0	0	0	0	0	0	0	0	1	1	1	1	0	0	1	0	0	0	0	0	1	1	1	1	1	1	1	0	0	0	0	0	0	0	1	0	1	1	0	0	1	0	0	0	1	1	1	1	0	0	1	0	0	0	0	0	1	1	1	0	1	0	1	0	0	0	0	0	0	0	1	0	1	0	1	0	1	1	0	202C	3C83	000	3C83A	202A	
80	80	0	0	0	0	0	0	0	0	0	1	1	1	1	0	0	1	0	0	0	0	0	1	1	1	1	1	1	1	0	0	0	0	0	0	0	1	0	1	1	0	0	1	0	0	0	1	1	1	1	0	0	1	0	0	0	0	0	1	1	1	0	0	1	1	0	0	0	0	0	0	0	1	0	1	0	1	0	1	1	0	202C	3C83	000	3C839	202A	
81	81	0	0	0	0	0	0	0	0	0	1	1	1	1	0	0	1	0	0	0	0	0	1	1	1	1	1	1	1	0	0	0	0	0	0	0	1	0	1	0	1	1	1	0	0	0	1	1	1	1	0	0	1	0	0	0	0	0	1	1	1	0	1	1	1	0	0	0	0	0	0	0	1	0	1	1	0	0	1	1	0	202B	3C83	000	3C83B	202C	
82	82	0	0	0	0	0	0	0	0	0	1	1	1	1	0	0	1	0	0	0	0	0	1	1	1	1	1	1	1	0	0	0	0	0	0	0	1	0	1	0	1	1	1	0	0	0	1	1	1	1	0	0	1	0	0	0	0	0	1	1	1	1	0	0	1	0	0	0	0	0	0	0	1	0	1	1	0	0	1	1	0	202B	3C83	000	3C83C	202C	
83	83	0	0	0	0	0	0	0	0	0	1	1	1	1	0	0	1	0	0	0	0	0	1	1	1	1	1	1	1	0	0	0	0	0	0	0	1	0	1	0	1	1	1	0	0	0	1	1	1	1	0	0	1	0	0	0	0	0	1	1	1	0	1	1	1	0	0	0	0	0	0	0	1	0	1	0	1	1	1	1	0	202B	3C83	000	3C83B	202B	
84	84	0	0	0	0	0	0	0	0	0	1	1	1	1	0	0	1	0	0	0	0	0	1	1	1	1	1	1	1	0	0	0	0	0	0	0	1	0	1	0	1	0	1	0	0	0	1	1	1	1	0	0	1	0	0	0	0	0	1	1	1	0	0	1	1	0	0	0	0	0	0	0	1	0	1	0	1	1	1	1	0	202A	3C83	000	3C839	202B	
85	85	0	0	0	0	0	0	0	0	0	1	1	1	1	0	0	1	0	0	0	0	0	1	1	1	1	1	1	1	0	0	0	0	0	0	0	1	0	1	0	1	0	1	0	0	0	1	1	1	1	0	0	1	0	0	0	0	0	1	1	1	0	0	0	1	0	0	0	0	0	0	0	1	0	1	1	0	0	1	1	0	202A	3C83	000	3C838	202C	
86	86	0	0	0	0	0	0	0	0	0	1	1	1	1	0	0	1	0	0	0	0	0	1	1	1	1	1	1	1	0	0	0	0	0	0	0	1	0	1	0	1	0	1	0	0	0	1	1	1	1	0	0	1	0	0	0	0	0	1	1	0	1	1	1	1	0	0	0	0	0	0	0	1	0	1	1	0	0	1	1	0	202A	3C83	000	3C837	202C	
87	87	0	0	0	0	0	0	0	0	0	1	1	1	1	0	0	1	0	0	0	0	0	1	1	1	1	1	1	1	0	0	0	0	0	0	0	1	0	1	0	1	0	1	0	0	0	1	1	1	1	0	0	1	0	0	0	0	0	1	1	0	1	0	1	1	0	0	0	0	0	0	0	1	0	1	1	0	0	1	1	0	202A	3C83	000	3C835	202C	
88	88	0	0	0	0	0	0	0	0	0	1	1	1	1	0	0	1	0	0	0	0	0	1	1	1	1	1	1	1	0	0	0	0	0	0	0	1	0	1	0	1	0	1	0	0	0	1	1	1	1	0	0	1	0	0	0	0	0	1	1	0	0	1	1	1	0	0	0	0	0	0	0	1	0	1	1	0	0	1	1	0	202A	3C83	000	3C833	202C	
89	89	0	0	0	0	0	0	0	0	0	1	1	1	1	0	0	1	0	0	0	0	0	1	1	1	1	1	1	1	0	0	0	0	0	0	0	1	0	1	0	1	0	1	0	0	0	1	1	1	1	0	0	1	0	0	0	0	0	1	1	0	0	0	1	1	0	0	0	0	0	0	0	1	0	1	1	0	1	1	1	0	202A	3C83	000	3C831	202D	
90	90	0	0	0	0	0	0	0	0	0	1	1	1	1	0	0	1	0	0	0	0	0	1	1	1	1	1	1	1	0	0	0	0	0	0	0	1	0	1	0	1	0	1	0	0	0	1	1	1	1	0	0	1	0	0	0	0	0	1	0	1	1	1	1	1	0	0	0	0	0	0	0	1	0	1	1	0	1	1	1	0	202A	3C83	000	3C82F	202D	
91	91	0	0	0	0	0	0	0	0	0	1	1	1	1	0	0	1	0	0	0	0	0	1	0	1	1	1	1	1	0	0	0	0	0	0	0	1	0	1	0	1	1	1	0	0	0	1	1	1	1	0	0	1	0	0	0	0	0	1	0	1	1	0	0	1	0	0	0	0	0	0	0	1	0	1	0	1	1	1	1	0	202B	3C82	000	3C82C	202B	
92	92	0	0	0	0	0	0	0	0	0	1	1	1	1	0	0	1	0	0	0	0	0	1	0	1	1	1	1	1	0	0	0	0	0	0	0	1	0	1	0	1	1	1	0	0	0	1	1	1	1	0	0	1	0	0	0	0	0	1	0	1	0	1	0	1	0	0	0	0	0	0	0	1	0	1	0	1	1	1	1	0	202B	3C82	000	3C82A	202B	
